! Touchstone generated by fitter/viewer 
# HZ S  RI R 5.000000e+01
! 
1.000000000000000e+06 -1.919772971641154e-01 1.542570147638149e-05 3.960122921156812e-01 -5.124902473968014e-06 3.940420817071460e-03 -5.099405446738170e-08 7.920245842313630e-01 -1.024980494793549e-05
                       4.278508833848759e-01 -3.000678291411293e-05 1.900859048589090e-01 9.969195645846433e-06 1.891402038397107e-03 9.919597657559006e-08 3.801718097178184e-01 1.993839129168911e-05
                       3.782804028610100e-03 7.218357147393160e-08 2.049018826858465e-03 -2.398164936571350e-08 9.900701394908145e-01 -2.386233767733243e-10 4.098037653716931e-03 -4.796329873141261e-08
                       7.603436097506295e-01 1.450889786626264e-05 4.118527841985512e-01 -4.820311522508274e-06 4.098037653716931e-03 -4.796329873142071e-08 -1.762944316028976e-01 -9.640623045014556e-06
6.004004004004004e+06 -1.919770864599185e-01 9.261572722176995e-05 3.960122221131301e-01 -3.076985317617193e-05 3.940420120528660e-03 -3.061676932952191e-07 7.920244442262599e-01 -6.153970635235337e-05
                       4.278504946788618e-01 -1.801604205145115e-04 1.900860339992542e-01 5.985494962547716e-05 1.891403323375668e-03 5.955716380644990e-07 3.801720679985089e-01 1.197098992509544e-04
                       3.782804909807217e-03 4.333895707557006e-07 2.049018534097110e-03 -1.439856259865831e-07 9.900701394879015e-01 -1.432692795886902e-09 4.098037068194220e-03 -2.879712519732065e-07
                       7.603437868712501e-01 8.711130372192181e-05 4.118527253535187e-01 -2.894111082330897e-05 4.098037068194220e-03 -2.879712519731906e-07 -1.762945492929625e-01 -5.788222164661423e-05
1.100800800800801e+07 -1.919765746807947e-01 1.698046975443356e-04 3.960120520840326e-01 -5.641445323376858e-05 3.940418428696841e-03 -5.613378431220280e-07 7.920241041680650e-01 -1.128289064675568e-04
                       4.278495505510562e-01 -3.303122394776938e-04 1.900863476681618e-01 1.097400993967558e-04 1.891406444459326e-03 1.091941287530204e-06 3.801726953363233e-01 2.194801987935250e-04
                       3.782807050147225e-03 7.945917917489532e-07 2.049017823008942e-03 -2.639883473415818e-07 9.900701394808260e-01 -2.626749724792895e-09 4.098035646017885e-03 -5.279766946833945e-07
                       7.603442170795917e-01 1.597129501415645e-04 4.118525824247971e-01 -5.306165781565390e-05 4.098035646017883e-03 -5.279766946831473e-07 -1.762948351504058e-01 -1.061233156313003e-04
1.601201201201201e+07 -1.919757618264871e-01 2.469917327697161e-04 3.960117820283049e-01 -8.205841039130971e-05 3.940415741575176e-03 -8.165015959329524e-07 7.920235640566098e-01 -1.641168207825280e-04
                       4.278480510001929e-01 -4.804607240251392e-04 1.900868458660515e-01 1.596241413703417e-04 1.891411401652258e-03 1.588299914132367e-06 3.801736917321036e-01 3.192482827406012e-04
                       3.782810449635138e-03 1.155787085422170e-06 2.049016693592300e-03 -3.839887672233812e-07 9.900701394695880e-01 -3.820783753464198e-09 4.098033387184600e-03 -7.679775344462990e-07
                       7.603449003766618e-01 2.323132041698895e-04 4.118523554120518e-01 -7.718174221186131e-05 4.098033387184599e-03 -7.679775344464285e-07 -1.762952891758964e-01 -1.543634844237008e-04
2.101601601601602e+07 -1.919746478965980e-01 3.241759531569302e-04 3.960114119458121e-01 -1.077014323711419e-04 3.940412059162311e-03 -1.071656043494494e-06 7.920228238916240e-01 -2.154028647422758e-04
                       4.278459960242598e-01 -6.306043582971610e-04 1.900875285935931e-01 2.095065719301241e-04 1.891418194961130e-03 2.084642506767504e-06 3.801750571871870e-01 4.190131438602402e-04
                       3.782815108278908e-03 1.516972302674785e-06 2.049015145844532e-03 -5.039858394008607e-07 9.900701394541875e-01 -5.014784471651609e-09 4.098030291689063e-03 -1.007971678801675e-06
                       7.603458367640601e-01 3.049114328376533e-04 4.118520443147506e-01 -1.013011537195939e-04 4.098030291689062e-03 -1.007971678801940e-06 -1.762959113704989e-01 -2.026023074391871e-04
2.602002002002002e+07 -1.919732328905703e-01 4.013564788676326e-04 3.960109418363719e-01 -1.333432268634561e-04 3.940407381456438e-03 -1.326798277248486e-06 7.920218836727435e-01 -2.666864537270066e-04
                       4.278433856204976e-01 -7.807416263175168e-04 1.900883958517023e-01 2.593868874212158e-04 1.891426824395052e-03 2.580964053942540e-06 3.801767917034052e-01 5.187737748425415e-04
                       3.782821026089480e-03 1.878144294306480e-06 2.049013179762013e-03 -6.239785176126529e-07 9.900701394346245e-01 -6.208741468783343e-09 4.098026359524025e-03 -1.247957035225703e-06
                       7.603470262439849e-01 3.775070031556554e-04 4.118516491321643e-01 -1.254196820401232e-04 4.098026359524025e-03 -1.247957035225308e-06 -1.762967017356715e-01 -2.508393640802875e-04
3.102402402402403e+07 -1.919715168077070e-01 4.785324299360519e-04 3.960103716997508e-01 -1.589835015158742e-04 3.940401708455234e-03 -1.581925388217787e-06 7.920207433995020e-01 -3.179670030319046e-04
                       4.278402197854033e-01 -9.308710119556817e-04 1.900894476415440e-01 3.092645841374278e-04 1.891437289965618e-03 3.077259543655787e-06 3.801788952830888e-01 6.185291682749237e-04
                       3.782828203080722e-03 2.239299910988848e-06 2.049010795340128e-03 -7.439657555516973e-07 9.900701394108989e-01 -7.402644333847175e-09 4.098021590680256e-03 -1.487931511103936e-06
                       7.603484688192247e-01 4.500992821087477e-04 4.118511698633654e-01 -1.495371168658740e-04 4.098021590680255e-03 -1.487931511103246e-06 -1.762976602732692e-01 -2.990742337317383e-04
3.602802802802803e+07 -1.919694996471573e-01 5.557029262381301e-04 3.960097015356676e-01 -1.846219639236625e-04 3.940395040155898e-03 -1.837034466903354e-06 7.920194030713350e-01 -3.692439278474171e-04
                       4.278364985147184e-01 -1.080990998890330e-03 1.900906839645316e-01 3.591391583090132e-04 1.891449591686886e-03 3.573523963275099e-06 3.801813679290634e-01 7.182783166181084e-04
                       3.782836639269508e-03 2.600436003229982e-06 2.049007992573275e-03 -8.639465068579136e-07 9.900701393830107e-01 -8.596482655308258e-09 4.098015985146549e-03 -1.727893013716064e-06
                       7.603501644931706e-01 5.226876366492291e-04 4.118506065072279e-01 -1.736532478784426e-04 4.098015985146549e-03 -1.727893013716032e-06 -1.762987869855441e-01 -3.473064957569220e-04
4.103203203203204e+07 -1.919671814079270e-01 6.328670874614363e-04 3.960089313437910e-01 -2.102583216194034e-04 3.940387376555135e-03 -2.092122603178648e-06 7.920178626875815e-01 -4.205166432389765e-04
                       4.278322218034406e-01 -1.231100070572865e-03 1.900921048223278e-01 4.090101060910882e-04 1.891463729575404e-03 4.069752299414274e-06 3.801842096446559e-01 8.180202121822763e-04
                       3.782846334675682e-03 2.961549421343478e-06 2.049004771454862e-03 -9.839197251074405e-07 9.900701393509598e-01 -9.790246020971566e-09 4.098009542909720e-03 -1.967839450215357e-06
                       7.603521132698116e-01 5.952714336899860e-04 4.118499590624268e-01 -1.977678647466301e-04 4.098009542909720e-03 -1.967839450215385e-06 -1.763000818751466e-01 -3.955357294932914e-04
4.603603603603604e+07 -1.919645620888725e-01 7.100240330749006e-04 3.960080611237415e-01 -2.358922820628319e-04 3.940378717649171e-03 -2.347186886198342e-06 7.920161222474831e-01 -4.717845641258873e-04
                       4.278273896458134e-01 -1.381196710189432e-03 1.900937102168456e-01 4.588769235505078e-04 1.891479703650209e-03 4.565939537816183e-06 3.801874204336919e-01 9.177538471011032e-04
                       3.782857289322084e-03 3.322637015419716e-06 2.049001131977296e-03 -1.103884363800639e-06 9.900701393147461e-01 -1.098392401791971e-08 4.098002263954591e-03 -2.207768727601661e-06
                       7.603543151537381e-01 6.678500400991639e-04 4.118492275274360e-01 -2.218807571239446e-04 4.098002263954589e-03 -2.207768727601552e-06 -1.763015449451280e-01 -4.437615142479115e-04
5.104004004004005e+07 -1.919616416887060e-01 7.871728822968094e-04 3.960070908750911e-01 -2.615235526309504e-04 3.940369063433748e-03 -2.602224404288094e-06 7.920141817501820e-01 -5.230471052617148e-04
                       4.278220020353228e-01 -1.531279400624961e-03 1.900955001502475e-01 5.087391066538185e-04 1.891497513932813e-03 5.062080663222573e-06 3.801910003004952e-01 1.017478213307536e-03
                       3.782869503234572e-03 3.683695635287276e-06 2.048997074131989e-03 -1.223839376352061e-06 9.900701392743695e-01 -1.217750623235925e-08 4.097994148263978e-03 -2.447678752703255e-06
                       7.603567701501486e-01 7.404228226926750e-04 4.118484119005297e-01 -2.459917146467274e-04 4.097994148263981e-03 -2.447678752703810e-06 -1.763031761989407e-01 -4.919834292934222e-04
5.604404404404405e+07 -1.919584202059934e-01 8.643127540667102e-04 3.960060205973632e-01 -2.871518406072710e-04 3.940358413904114e-03 -2.857232244848918e-06 7.920120411947261e-01 -5.743036812147566e-04
                       4.278160589647045e-01 -1.681346624424959e-03 1.900974746249495e-01 5.585961512552722e-04 1.891517160447262e-03 5.558170659256862e-06 3.801949492498992e-01 1.117192302510638e-03
                       3.782882976442030e-03 4.044722130486396e-06 2.048992597909346e-03 -1.343783716078855e-06 9.900701392298299e-01 -1.337098224954448e-08 4.097985195818690e-03 -2.687567432159115e-06
                       7.603594782648478e-01 8.129891482278208e-04 4.118475121797782e-01 -2.701005269318804e-04 4.097985195818691e-03 -2.687567432158399e-06 -1.763049756404437e-01 -5.402010538636630e-04
6.104804804804805e+07 -1.919548976391576e-01 9.414427670121268e-04 3.960048502900346e-01 -3.127768531726875e-04 3.940346769055070e-03 -3.112207494255971e-06 7.920097005800691e-01 -6.255537063454755e-04
                       4.278095604259281e-01 -1.831396863758821e-03 1.900996336436172e-01 6.084475530835936e-04 1.891538643220074e-03 6.054204508294965e-06 3.801992672872349e-01 1.216895106167157e-03
                       3.782897708976393e-03 4.405713350231483e-06 2.048987703298757e-03 -1.463716336192947e-06 9.900701391811273e-01 -1.456434165366372e-08 4.097975406597513e-03 -2.927432672386088e-06
                       7.603624395042541e-01 8.855483833964790e-04 4.118465283630499e-01 -2.942069835747941e-04 4.097975406597514e-03 -2.927432672386322e-06 -1.763069432739008e-01 -5.884139671495140e-04
6.605205205205206e+07 -1.919510739864785e-01 1.018562039419859e-03 3.960035799525332e-01 -3.383982973940180e-04 3.940334128880933e-03 -3.367147237752067e-06 7.920071599050659e-01 -6.767965947879991e-04
                       4.278025064102047e-01 -1.981428600382135e-03 1.901019772091717e-01 6.582928077302192e-04 1.891561962280316e-03 6.550177191345253e-06 3.802039544183437e-01 1.316585615460426e-03
                       3.782913700872652e-03 4.766666143376692e-06 2.048982390288595e-03 -1.583636189783132e-06 9.900701391282616e-01 -1.575757402769575e-08 4.097964780577188e-03 -3.167272379566558e-06
                       7.603656538754026e-01 9.580998948187230e-04 4.118454604480073e-01 -3.183108741464447e-04 4.097964780577190e-03 -3.167272379566396e-06 -1.763090791039860e-01 -6.366217482929539e-04
7.105605605605607e+07 -1.919469492460950e-01 1.095669689203920e-03 3.960022095842402e-01 -3.640158802150702e-04 3.940320493375529e-03 -3.622048559352678e-06 7.920044191684803e-01 -7.280317604298023e-04
                       4.277948969079780e-01 -2.131440315597899e-03 1.901045053247873e-01 7.081314106368353e-04 1.891587117659576e-03 7.046083687927916e-06 3.802090106495750e-01 1.416262821273352e-03
                       3.782930952168902e-03 5.127577358385216e-06 2.048976658866204e-03 -1.703542229811743e-06 9.900701390712325e-01 -1.695066895334649e-08 4.097953317732408e-03 -3.407084459622062e-06
                       7.603691213859487e-01 1.030643049035271e-03 4.118443084321067e-01 -3.424119881920961e-04 4.097953317732410e-03 -3.407084459622784e-06 -1.763113831357867e-01 -6.848239763841508e-04
7.606006006006007e+07 -1.919425234160042e-01 1.172764833875844e-03 3.960007391844908e-01 -3.896293084447146e-04 3.940305862532247e-03 -3.876908541738022e-06 7.920014783689815e-01 -7.792586168894941e-04
                       4.277867319089251e-01 -2.281430490220317e-03 1.901072179938943e-01 7.579628570814690e-04 1.891614109391989e-03 7.541918975935885e-06 3.802144359877892e-01 1.515925714163109e-03
                       3.782949462906339e-03 5.488443843290179e-06 2.048970509017898e-03 -1.823433409093500e-06 9.900701390100399e-01 -1.814361601087957e-08 4.097941018035796e-03 -3.646866818187148e-06
                       7.603728420441735e-01 1.103177212501426e-03 4.118430723125971e-01 -3.665101152277898e-04 4.097941018035795e-03 -3.646866818185978e-06 -1.763138553748060e-01 -7.330202304554725e-04
8.106406406406407e+07 -1.919377964940647e-01 1.249846590511864e-03 3.959991687525738e-01 -4.152382887485109e-04 3.940290236344020e-03 -4.131724266155441e-06 7.919983375051473e-01 -8.304765774971074e-04
                       4.277780114019461e-01 -2.431397604534827e-03 1.901101152201801e-01 8.077866421676980e-04 1.891642937514232e-03 8.037678031520075e-06 3.802202304403606e-01 1.615573284335459e-03
                       3.782969233129306e-03 5.849262445658259e-06 2.048963940728945e-03 -1.943308680292822e-06 9.900701389446839e-01 -1.933640477904035e-08 4.097927881457887e-03 -3.886617360586237e-06
                       7.603768158589901e-01 1.175701751577415e-03 4.118417520865174e-01 -3.906050447388722e-04 4.097927881457888e-03 -3.886617360586403e-06 -1.763164958269655e-01 -7.812100894779522e-04
8.606806806806807e+07 -1.919327684779998e-01 1.326914075724029e-03 3.959974982877329e-01 -4.408425276371167e-04 3.940273614803313e-03 -4.386492812310300e-06 7.919949965754649e-01 -8.816850552742397e-04
                       4.277687353751685e-01 -2.581340138260132e-03 1.901131970075887e-01 8.576022608103261e-04 1.891673602065561e-03 8.533355828959052e-06 3.802263940151778e-01 1.715204521620682e-03
                       3.782990262885312e-03 6.210030012556501e-06 2.048956953983563e-03 -2.063166995906394e-06 9.900701388751640e-01 -2.052902483489260e-08 4.097913907967123e-03 -4.126333991813210e-06
                       7.603810428399471e-01 1.248216032523717e-03 4.118403477506957e-01 -4.146965661772026e-04 4.097913907967124e-03 -4.126333991813498e-06 -1.763193044986089e-01 -8.293931323545385e-04
9.107207207207207e+07 -1.919274393653958e-01 1.403966405627479e-03 3.959957277891649e-01 -4.664417314564186e-04 3.940255997902143e-03 -4.641211258274483e-06 7.919914555783296e-01 -9.328834629131694e-04
                       4.277589038159363e-01 -2.731256570510471e-03 1.901164633603252e-01 9.074092077231544e-04 1.891706103087815e-03 9.028947340530348e-06 3.802329267206502e-01 1.814818415446596e-03
                       3.783012552225055e-03 6.570743390508418e-06 2.048949548764904e-03 -2.183007308251803e-06 9.900701388014802e-01 -2.172146575375471e-08 4.097899097529808e-03 -4.366014616505272e-06
                       7.603855229972354e-01 1.320719421492258e-03 4.118388593017455e-01 -4.387844689586055e-04 4.097899097529809e-03 -4.366014616504122e-06 -1.763222813965087e-01 -8.775689379173754e-04
9.607607607607609e+07 -1.919218091537071e-01 1.481002695811149e-03 3.959938572560250e-01 -4.920356063769534e-04 3.940237385632095e-03 -4.895876680367858e-06 7.919877145120501e-01 -9.840712127537341e-04
                       4.277485167108106e-01 -2.881145379755603e-03 1.901199142828547e-01 9.572069774063793e-04 1.891740440625418e-03 9.524447536382523e-06 3.802398285657090e-01 1.914413954812753e-03
                       3.783036101202459e-03 6.931399425467612e-06 2.048941725055054e-03 -2.302828569453180e-06 9.900701387236324e-01 -2.291371710898743e-08 4.097883450110109e-03 -4.605657138905636e-06
                       7.603902563416942e-01 1.393211284519020e-03 4.118372867360653e-01 -4.628685424600902e-04 4.097883450110110e-03 -4.605657138906349e-06 -1.763254265278686e-01 -9.257370849200849e-04
1.010800800800801e+08 -1.919158778402539e-01 1.558022061303663e-03 3.959918866874232e-01 -5.176238583835918e-04 3.940217777984314e-03 -5.150486153070035e-06 7.919837733748462e-01 -1.035247716767280e-03
                       4.277375740455600e-01 -3.031005043781380e-03 1.901235497799050e-01 1.006995064132437e-03 1.891776614725427e-03 1.001985138440248e-05 3.802470995598101e-01 2.013990128265018e-03
                       3.783060909874731e-03 7.291994962760181e-06 2.048933482835011e-03 -2.422629731429916e-06 9.900701386416202e-01 -2.410576847193860e-08 4.097866965670021e-03 -4.845259462860456e-06
                       7.603952428848205e-01 1.465690987514892e-03 4.118356300498367e-01 -4.869485760174285e-04 4.097866965670019e-03 -4.845259462860371e-06 -1.763287399003264e-01 -9.738971520348752e-04
1.060840840840841e+08 -1.919096454222282e-01 1.635023616544968e-03 3.959898160824267e-01 -5.432061932653363e-04 3.940197174949525e-03 -5.405036748908946e-06 7.919796321648535e-01 -1.086412386530594e-03
                       4.277260758051574e-01 -3.180834039651752e-03 1.901273698564685e-01 1.056772961933966e-03 1.891814625437498e-03 1.051515385008879e-05 3.802547397129371e-01 2.113545923867816e-03
                       3.783086978302343e-03 7.652526847064394e-06 2.048924822084681e-03 -2.542409745884243e-06 9.900701385554436e-01 -2.529760941178356e-08 4.097849644169364e-03 -5.084819491768436e-06
                       7.604004826387701e-01 1.538157896259889e-03 4.118338892390205e-01 -5.110243589227373e-04 4.097849644169363e-03 -5.084819491768517e-06 -1.763322215219592e-01 -1.022048717845457e-03
1.110880880880881e+08 -1.919031118966977e-01 1.712006475351380e-03 3.959876454400604e-01 -5.687823166044730e-04 3.940175576518015e-03 -5.659525538353131e-06 7.919752908801201e-01 -1.137564633208743e-03
                       4.277140219737783e-01 -3.330630843666241e-03 1.901313745178024e-01 1.106540164589662e-03 1.891854472813956e-03 1.101034989641475e-05 3.802627490356049e-01 2.213080329179223e-03
                       3.783114306549109e-03 8.012991922348735e-06 2.048915742782863e-03 -2.662167564284130e-06 9.900701384651023e-01 -2.648922949536458e-08 4.097831485565723e-03 -5.324335128568107e-06
                       7.604059756163707e-01 1.610611376392094e-03 4.118320642993549e-01 -5.350956804210982e-04 4.097831485565724e-03 -5.324335128568208e-06 -1.763358714012903e-01 -1.070191360842174e-03
1.160920920920921e+08 -1.918962772606010e-01 1.788969750887861e-03 3.959853747593071e-01 -5.943519337660501e-04 3.940152982679674e-03 -5.913949589714580e-06 7.919707495186138e-01 -1.188703867532076e-03
                       4.277014125347936e-01 -3.480393931321005e-03 1.901355637694324e-01 1.156296165612378e-03 1.891896156909785e-03 1.150543448370652e-05 3.802711275388654e-01 2.312592331224545e-03
                       3.783142894682220e-03 8.373387031845979e-06 2.048906244907232e-03 -2.781902137853416e-06 9.900701383705961e-01 -2.768061828710615e-08 4.097812489814463e-03 -5.563804275706832e-06
                       7.604117218311258e-01 1.683050793401009e-03 4.118301552263533e-01 -5.591623297085889e-04 4.097812489814461e-03 -5.563804275707693e-06 -1.763396895472935e-01 -1.118324659417026e-03
1.210960960960961e+08 -1.918891415107552e-01 1.865912555632879e-03 3.959830040391108e-01 -6.199147498880496e-04 3.940129393423990e-03 -6.168305969036042e-06 7.919660080782213e-01 -1.239829499776140e-03
                       4.276882474707573e-01 -3.630121777268992e-03 1.901399376171535e-01 1.206040458233283e-03 1.891939677782623e-03 1.200040256948412e-05 3.802798752343077e-01 2.412080916466536e-03
