! Touchstone generated by fitter/viewer 
# HZ S  RI R 5.000000e+001
! 
3.000000000000000e+005 8.945375292439550e-004 -2.406547480440737e-002 9.991051975006704e-001 2.407949104916201e-002 9.991051975006704e-001 2.407949104916201e-002 8.945375292439550e-004 -2.406547480440737e-002
3.070234206316360e+005 8.632278963590645e-004 -2.351545883323309e-002 9.991363075129306e-001 2.352984960836525e-002 9.991363075129306e-001 2.352984960836525e-002 8.632278963590645e-004 -2.351545883323309e-002
3.142112693878349e+005 8.324216001391882e-004 -2.297801280537115e-002 9.991662233989948e-001 2.298744320696098e-002 9.991662233989948e-001 2.298744320696098e-002 8.324216001391882e-004 -2.297801280537115e-002
3.215673957615384e+005 8.030632050409770e-004 -2.245287072691368e-002 9.991948941294975e-001 2.245712373216155e-002 9.991948941294975e-001 2.245712373216155e-002 8.030632050409770e-004 -2.245287072691368e-002
3.290957393677152e+005 7.762438119091053e-004 -2.193965222871194e-002 9.992222629818819e-001 2.194454529993635e-002 9.992222629818819e-001 2.194454529993635e-002 7.762438119091053e-004 -2.193965222871194e-002
3.368003320532442e+005 7.516454911934423e-004 -2.143810341188150e-002 9.992484055909495e-001 2.144849583330140e-002 9.992484055909495e-001 2.144849583330140e-002 7.516454911934423e-004 -2.143810341188150e-002
3.446853000561929e+005 7.277928201790962e-004 -2.094802958305210e-002 9.992735105484266e-001 2.096211686973860e-002 9.992735105484266e-001 2.096211686973860e-002 7.277928201790962e-004 -2.094802958305210e-002
3.527548662156473e+005 7.034417910519730e-004 -2.046915316953240e-002 9.992977447951521e-001 2.047969498537599e-002 9.992977447951521e-001 2.047969498537599e-002 7.034417910519730e-004 -2.046915316953240e-002
3.610133522332771e+005 6.790948057512347e-004 -2.000126310462781e-002 9.993210654058776e-001 2.000415306316801e-002 9.993210654058776e-001 2.000415306316801e-002 6.790948057512347e-004 -2.000126310462781e-002
3.694651809878480e+005 6.558001382722667e-004 -1.954406769506614e-002 9.993433715918803e-001 1.954109186759434e-002 9.993433715918803e-001 1.954109186759434e-002 6.558001382722667e-004 -1.954406769506614e-002
3.781148789039186e+005 6.341488258010397e-004 -1.909728532679891e-002 9.993646415185075e-001 1.909307397520714e-002 9.993646415185075e-001 1.909307397520714e-002 6.341488258010397e-004 -1.909728532679891e-002
3.869670783759930e+005 6.139325523992767e-004 -1.866071920399836e-002 9.993849824506423e-001 1.865747698318186e-002 9.993849824506423e-001 1.865747698318186e-002 6.139325523992767e-004 -1.866071920399836e-002
3.960265202494257e+005 5.948411278635657e-004 -1.823408523731630e-002 9.994045228327780e-001 1.823110547574190e-002 9.994045228327780e-001 1.823110547574190e-002 5.948411278635657e-004 -1.823408523731630e-002
4.052980563594084e+005 5.765789562635071e-004 -1.781718887955983e-002 9.994233042236359e-001 1.781351424119711e-002 9.994233042236359e-001 1.781351424119711e-002 5.765789562635071e-004 -1.781718887955983e-002
4.147866521293972e+005 5.588383864615354e-004 -1.740983872589663e-002 9.994413181134770e-001 1.740594586609433e-002 9.994413181134770e-001 1.740594586609433e-002 5.588383864615354e-004 -1.740983872589663e-002
4.244973892303733e+005 5.414229955085226e-004 -1.701178595791832e-002 9.994585685416284e-001 1.700914745337707e-002 9.994585685416284e-001 1.700914745337707e-002 5.414229955085226e-004 -1.701178595791832e-002
4.344354683023606e+005 5.246035665270599e-004 -1.662284899585107e-002 9.994750915284152e-001 1.662201087239030e-002 9.994750915284152e-001 1.662201087239030e-002 5.246035665270599e-004 -1.662284899585107e-002
4.446062117396581e+005 5.087687576040834e-004 -1.624277382248489e-002 9.994909385001531e-001 1.624285616380386e-002 9.994909385001531e-001 1.624285616380386e-002 5.087687576040834e-004 -1.624277382248489e-002
4.550150665412775e+005 4.939619575815568e-004 -1.587135403303985e-002 9.995061524605930e-001 1.587098055600974e-002 9.995061524605930e-001 1.587098055600974e-002 4.939619575815568e-004 -1.587135403303985e-002
4.656676072281149e+005 4.797711297431784e-004 -1.550846538936004e-002 9.995207632103887e-001 1.550700264103234e-002 9.995207632103887e-001 1.550700264103234e-002 4.797711297431784e-004 -1.550846538936004e-002
4.765695388284166e+005 4.657767335957130e-004 -1.515390378740355e-002 9.995348050335121e-001 1.515153824035408e-002 9.995348050335121e-001 1.515153824035408e-002 4.657767335957130e-004 -1.515390378740355e-002
4.877266999331390e+005 4.520868928258315e-004 -1.480743291736806e-002 9.995482963446856e-001 1.480452630119668e-002 9.995482963446856e-001 1.480452630119668e-002 4.520868928258315e-004 -1.480743291736806e-002
4.991450658228395e+005 4.390795971156436e-004 -1.446873764002373e-002 9.995612516805001e-001 1.446551772812789e-002 9.995612516805001e-001 1.446551772812789e-002 4.390795971156436e-004 -1.446873764002373e-002
5.108307516677709e+005 4.269809534558355e-004 -1.413762095388218e-002 9.995736869352964e-001 1.413410401221399e-002 9.995736869352964e-001 1.413410401221399e-002 4.269809534558355e-004 -1.413762095388218e-002
5.227900158028959e+005 4.155544032209413e-004 -1.381436205539058e-002 9.995856121527321e-001 1.381018917478375e-002 9.995856121527321e-001 1.381018917478375e-002 4.155544032209413e-004 -1.381436205539058e-002
5.350292630795738e+005 4.044619298945174e-004 -1.349923301677041e-002 9.995970414266517e-001 1.349365578770656e-002 9.995970414266517e-001 1.349365578770656e-002 4.044619298945174e-004 -1.349923301677041e-002
5.475550482957140e+005 3.935169196909172e-004 -1.319135967390164e-002 9.996079987432118e-001 1.318431001448474e-002 9.996079987432118e-001 1.318431001448474e-002 3.935169196909172e-004 -1.319135967390164e-002
5.603740797062358e+005 3.826898534504686e-004 -1.288865491633976e-002 9.996185189353762e-001 1.288187086643828e-002 9.996185189353762e-001 1.288187086643828e-002 3.826898534504686e-004 -1.288865491633976e-002
5.734932226157117e+005 3.719899961582840e-004 -1.258934529885905e-002 9.996286392820915e-001 1.258604341662855e-002 9.996286392820915e-001 1.258604341662855e-002 3.719899961582840e-004 -1.258934529885905e-002
5.869195030551204e+005 3.616328758738741e-004 -1.229522782410542e-002 9.996383709124429e-001 1.229693977520381e-002 9.996383709124429e-001 1.229693977520381e-002 3.616328758738741e-004 -1.229522782410542e-002
6.006601115446766e+005 3.519304043264615e-004 -1.200959785526557e-002 9.996477180582328e-001 1.201479462402173e-002 9.996477180582328e-001 1.201479462402173e-002 3.519304043264615e-004 -1.200959785526557e-002
6.147224069447554e+005 3.430056068973730e-004 -1.173414943165927e-002 9.996566895863093e-001 1.173957221706485e-002 9.996566895863093e-001 1.173957221706485e-002 3.430056068973730e-004 -1.173414943165927e-002
6.291139203969711e+005 3.345603481101911e-004 -1.146694671021765e-002 9.996653003345819e-001 1.147071607540664e-002 9.996653003345819e-001 1.147071607540664e-002 3.345603481101911e-004 -1.146694671021765e-002
6.438423593575227e+005 3.262295647431523e-004 -1.120544833872206e-002 9.996735700171239e-001 1.120752579192721e-002 9.996735700171239e-001 1.120752579192721e-002 3.262295647431523e-004 -1.120544833872206e-002
6.589156117249654e+005 3.179790836299601e-004 -1.094899883801322e-002 9.996815176124506e-001 1.094981357718287e-002 9.996815176124506e-001 1.094981357718287e-002 3.179790836299601e-004 -1.094899883801322e-002
6.743417500646192e+005 3.100480506188497e-004 -1.069847115253865e-002 9.996891629076057e-001 1.069779560238505e-002 9.996891629076057e-001 1.069779560238505e-002 3.100480506188497e-004 -1.069847115253865e-002
6.901290359318771e+005 3.026556092807775e-004 -1.045440814306670e-002 9.996965256428881e-001 1.045163155948208e-002 9.996965256428881e-001 1.045163155948208e-002 3.026556092807775e-004 -1.045440814306670e-002
7.062859242967271e+005 2.958053845883990e-004 -1.021555666219964e-002 9.997036083837096e-001 1.021127101320923e-002 9.997036083837096e-001 1.021127101320923e-002 2.958053845883990e-004 -1.021555666219964e-002
7.228210680718594e+005 2.894329979217236e-004 -9.979990184043892e-003 9.997104106352815e-001 9.976555013843506e-003 9.997104106352815e-001 9.976555013843506e-003 2.894329979217236e-004 -9.979990184043892e-003
7.397433227467829e+005 2.833954997795152e-004 -9.747292572465836e-003 9.997169363392072e-001 9.747294116713290e-003 9.997169363392072e-001 9.747294116713290e-003 2.833954997795152e-004 -9.747292572465836e-003
7.570617511304319e+005 2.774288353104559e-004 -9.519677730779132e-003 9.997231955477491e-001 9.523288673359998e-003 9.997231955477491e-001 9.523288673359998e-003 2.774288353104559e-004 -9.519677730779132e-003
7.747856282048050e+005 2.712617066015222e-004 -9.299582523256526e-003 9.997292023702498e-001 9.304286820844795e-003 9.997292023702498e-001 9.304286820844795e-003 2.712617066015222e-004 -9.299582523256526e-003
7.929244460922339e+005 2.649829765286604e-004 -9.087049691391957e-003 9.997349761497463e-001 9.090176466665245e-003 9.997349761497463e-001 9.090176466665245e-003 2.649829765286604e-004 -9.087049691391957e-003
8.114879191389430e+005 2.589230126465170e-004 -8.880527571046615e-003 9.997405416451659e-001 8.880909935150486e-003 9.997405416451659e-001 8.880909935150486e-003 2.589230126465170e-004 -8.880527571046615e-003
8.304859891176223e+005 2.533510369230330e-004 -8.678431440940547e-003 9.997459183045682e-001 8.676404459064263e-003 9.997459183045682e-001 8.676404459064263e-003 2.533510369230330e-004 -8.678431440940547e-003
8.499288305518000e+005 2.482191075241502e-004 -8.479755008836845e-003 9.997510957555017e-001 8.476576044358026e-003 9.997510957555017e-001 8.476576044358026e-003 2.482191075241502e-004 -8.479755008836845e-003
8.698268561648658e+005 2.434001014132159e-004 -8.283523751798456e-003 9.997560575169128e-001 8.281297196201508e-003 9.997560575169128e-001 8.281297196201508e-003 2.434001014132159e-004 -8.283523751798456e-003
8.901907224566637e+005 2.387888276919048e-004 -8.090066826638482e-003 9.997608040278481e-001 8.090474837890358e-003 9.997608040278481e-001 8.090474837890358e-003 2.387888276919048e-004 -8.090066826638482e-003
9.110313354106406e+005 2.343136708560234e-004 -7.901472633069956e-003 9.997653582797174e-001 7.904073797815605e-003 9.997653582797174e-001 7.904073797815605e-003 2.343136708560234e-004 -7.901472633069956e-003
9.323598563346071e+005 2.299102146782195e-004 -7.719740792218238e-003 9.997697470581949e-001 7.722010360334547e-003 9.997697470581949e-001 7.722010360334547e-003 2.299102146782195e-004 -7.719740792218238e-003
9.541877078382392e+005 2.256226510040094e-004 -7.543797059754566e-003 9.997739850809745e-001 7.544096274291242e-003 9.997739850809745e-001 7.544096274291242e-003 2.256226510040094e-004 -7.543797059754566e-003
9.765265799505209e+005 2.215536662846240e-004 -7.370880243059986e-003 9.997780827265699e-001 7.370052776760774e-003 9.997780827265699e-001 7.370052776760774e-003 2.215536662846240e-004 -7.370880243059986e-003
9.993884363804056e+005 2.177573023868229e-004 -7.199307242469148e-003 9.997820459657975e-001 7.199651833126006e-003 9.997820459657975e-001 7.199651833126006e-003 2.177573023868229e-004 -7.199307242469148e-003
1.022785520924048e+006 2.141393015033799e-004 -7.030899253601002e-003 9.997858651828129e-001 7.032917998034377e-003 9.997858651828129e-001 7.032917998034377e-003 2.141393015033799e-004 -7.030899253601002e-003
1.046730364022036e+006 2.105732263528726e-004 -6.868156736819465e-003 9.997895284712129e-001 6.869895052847971e-003 9.997895284712129e-001 6.869895052847971e-003 2.105732263528726e-004 -6.868156736819465e-003
1.071235789470143e+006 2.070452950184709e-004 -6.711316341452480e-003 9.997930352113633e-001 6.710662659419462e-003 9.997930352113633e-001 6.710662659419462e-003 2.070452950184709e-004 -6.711316341452480e-003
1.096314921287181e+006 2.036627587282958e-004 -6.558179012674875e-003 9.997963969858842e-001 6.555337260508169e-003 9.997963969858842e-001 6.555337260508169e-003 2.036627587282958e-004 -6.558179012674875e-003
1.121981190743644e+006 2.005200937724716e-004 -6.406595059390171e-003 9.997996276276943e-001 6.403954945797208e-003 9.997996276276943e-001 6.403954945797208e-003 2.005200937724716e-004 -6.406595059390171e-003
1.148248343554898e+006 1.975448094753141e-004 -6.256875478574456e-003 9.998027381294411e-001 6.256170128392038e-003 9.998027381294411e-001 6.256170128392038e-003 1.975448094753141e-004 -6.256875478574456e-003
1.175130447242783e+006 1.945910721254940e-004 -6.110320191207250e-003 9.998057399993406e-001 6.111432973473103e-003 9.998057399993406e-001 6.111432973473103e-003 1.945910721254940e-004 -6.110320191207250e-003
1.202641898669545e+006 1.915930300796509e-004 -5.967758095206419e-003 9.998086413583001e-001 5.969435884959111e-003 9.998086413583001e-001 5.969435884959111e-003 1.915930300796509e-004 -5.967758095206419e-003
1.230797431748163e+006 1.886725496503816e-004 -5.828879606815571e-003 9.998114407467277e-001 5.830483477591945e-003 9.998114407467277e-001 5.830483477591945e-003 1.886725496503816e-004 -5.828879606815571e-003
1.259612125333178e+006 1.859783957431915e-004 -5.693184887504712e-003 9.998141361162318e-001 5.694942653916063e-003 9.998141361162318e-001 5.694942653916063e-003 1.859783957431915e-004 -5.693184887504712e-003
1.289101411296258e+006 1.834996106520048e-004 -5.560476825107135e-003 9.998167270950712e-001 5.562776720408193e-003 9.998167270950712e-001 5.562776720408193e-003 1.834996106520048e-004 -5.560476825107135e-003
1.319281082790822e+006 1.810882669583958e-004 -5.430802386237243e-003 9.998192149469452e-001 5.433595519025182e-003 9.998192149469452e-001 5.433595519025182e-003 1.810882669583958e-004 -5.430802386237243e-003
1.350167302710156e+006 1.786181535327058e-004 -5.304181480347699e-003 9.998216028965490e-001 5.307022946067826e-003 9.998216028965490e-001 5.307022946067826e-003 1.786181535327058e-004 -5.304181480347699e-003
1.381776612343538e+006 1.761468550245393e-004 -5.180559348360107e-003 9.998238993198475e-001 5.183063956742987e-003 9.998238993198475e-001 5.183063956742987e-003 1.761468550245393e-004 -5.180559348360107e-003
1.414125940235024e+006 1.737931976670826e-004 -5.059832147095676e-003 9.998261155068404e-001 5.061821361718823e-003 9.998261155068404e-001 5.061821361718823e-003 1.737931976670826e-004 -5.059832147095676e-003
1.447232611249618e+006 1.716288748222494e-004 -4.941898092841970e-003 9.998282583252421e-001 4.943377121322596e-003 9.998282583252421e-001 4.943377121322596e-003 1.716288748222494e-004 -4.941898092841970e-003
1.481114355851708e+006 1.696374411942481e-004 -4.826682553842929e-003 9.998303259472751e-001 4.827784096607097e-003 9.998303259472751e-001 4.827784096607097e-003 1.696374411942481e-004 -4.826682553842929e-003
1.515789319600712e+006 1.677886121846939e-004 -4.714093393227219e-003 9.998323163393432e-001 4.715059237240753e-003 9.998323163393432e-001 4.715059237240753e-003 1.677886121846939e-004 -4.714093393227219e-003
1.551276072869035e+006 1.660258177071938e-004 -4.604144202992705e-003 9.998342306857285e-001 4.605039910217093e-003 9.998342306857285e-001 4.605039910217093e-003 1.660258177071938e-004 -4.604144202992705e-003
1.587593620787541e+006 1.642712405206526e-004 -4.496910075260495e-003 9.998360726654609e-001 4.497422537616581e-003 9.998360726654609e-001 4.497422537616581e-003 1.642712405206526e-004 -4.496910075260495e-003
1.624761413423850e+006 1.624680998500994e-004 -4.392336924047001e-003 9.998378453571194e-001 4.391939059918895e-003 9.998378453571194e-001 4.391939059918895e-003 1.624680998500994e-004 -4.392336924047001e-003
1.662799356198940e+006 1.606595269219024e-004 -4.289958024245125e-003 9.998395470523509e-001 4.288606346427188e-003 9.998395470523509e-001 4.288606346427188e-003 1.606595269219024e-004 -4.289958024245125e-003
1.701727820547602e+006 1.589157467092317e-004 -4.189155377842220e-003 9.998411753446731e-001 4.187493210094760e-003 9.998411753446731e-001 4.187493210094760e-003 1.589157467092317e-004 -4.189155377842220e-003
1.741567654828479e+006 1.572730318328830e-004 -4.089777609039155e-003 9.998427332587787e-001 4.088667766640188e-003 9.998427332587787e-001 4.088667766640188e-003 1.572730318328830e-004 -4.089777609039155e-003
1.782340195489520e+006 1.557192638187432e-004 -3.992330974512725e-003 9.998442311190893e-001 3.992199423971325e-003 9.998442311190893e-001 3.992199423971325e-003 1.557192638187432e-004 -3.992330974512725e-003
1.824067278494837e+006 1.542397358524905e-004 -3.897343701254116e-003 9.998456802337328e-001 3.898116591612537e-003 9.998456802337328e-001 3.898116591612537e-003 1.542397358524905e-004 -3.897343701254116e-003
1.866771251019079e+006 1.528397636382239e-004 -3.804837564630918e-003 9.998470832488889e-001 3.806206292251355e-003 9.998470832488889e-001 3.806206292251355e-003 1.528397636382239e-004 -3.804837564630918e-003
1.910474983415587e+006 1.515352495644606e-004 -3.714556527372827e-003 9.998484386607104e-001 3.716100786060341e-003 9.998484386607104e-001 3.716100786060341e-003 1.515352495644606e-004 -3.714556527372827e-003
1.955201881464738e+006 1.503198145408335e-004 -3.626306778424026e-003 9.998497456562344e-001 3.627558868260651e-003 9.998497456562344e-001 3.627558868260651e-003 1.503198145408335e-004 -3.626306778424026e-003
2.000975898909048e+006 1.491244952294135e-004 -3.540158097285814e-003 9.998510050537214e-001 3.540795880547964e-003 9.998510050537214e-001 3.540795880547964e-003 1.491244952294135e-004 -3.540158097285814e-003
2.047821550281728e+006 1.478653347601888e-004 -3.456206902600656e-003 9.998522182734778e-001 3.456107536390129e-003 9.998522182734778e-001 3.456107536390129e-003 1.478653347601888e-004 -3.456206902600656e-003
2.095763924035586e+006 1.465507642355313e-004 -3.374287537510315e-003 9.998533845853104e-001 3.373543601393442e-003 9.998533845853104e-001 3.373543601393442e-003 1.465507642355313e-004 -3.374287537510315e-003
2.144828695979286e+006 1.452911354506981e-004 -3.293944647580825e-003 9.998545008988613e-001 3.292881880788393e-003 9.998545008988613e-001 3.292881880788393e-003 1.452911354506981e-004 -3.293944647580825e-003
2.195042143028172e+006 1.441916395289455e-004 -3.214746840671635e-003 9.998555660900083e-001 3.213889424129124e-003 9.998555660900083e-001 3.213889424129124e-003 1.441916395289455e-004 -3.214746840671635e-003
2.246431157277020e+006 1.432279493231992e-004 -3.136861820142234e-003 9.998565914750245e-001 3.136574752065490e-003 9.998565914750245e-001 3.136574752065490e-003 1.432279493231992e-004 -3.136861820142234e-003
2.299023260402251e+006 1.423200595622731e-004 -3.060707924426214e-003 9.998575946189715e-001 3.061034953540863e-003 9.998575946189715e-001 3.061034953540863e-003 1.423200595622731e-004 -3.060707924426214e-003
2.352846618401318e+006 1.414148520726410e-004 -2.986571166480721e-003 9.998585807275880e-001 2.987303197206785e-003 9.998585807275880e-001 2.987303197206785e-003 1.414148520726410e-004 -2.986571166480721e-003
2.407930056677167e+006 1.405292535437974e-004 -2.914408171603885e-003 9.998595257660999e-001 2.915278668075303e-003 9.998595257660999e-001 2.915278668075303e-003 1.405292535437974e-004 -2.914408171603885e-003
2.464303075475843e+006 1.396890268555717e-004 -2.844103625901887e-003 9.998604012256837e-001 2.844817175264431e-003 9.998604012256837e-001 2.844817175264431e-003 1.396890268555717e-004 -2.844103625901887e-003
2.521995865685513e+006 1.388851890170573e-004 -2.775424017053244e-003 9.998612083330031e-001 2.775773491408370e-003 9.998612083330031e-001 2.775773491408370e-003 1.388851890170573e-004 -2.775424017053244e-003
2.581039325005367e+006 1.380779995900916e-004 -2.708021552271725e-003 9.998619744953645e-001 2.707993662413518e-003 9.998619744953645e-001 2.707993662413518e-003 1.380779995900916e-004 -2.708021552271725e-003
2.641465074493056e+006 1.372395543686178e-004 -2.641610011314051e-003 9.998627257064893e-001 2.641356817867431e-003 9.998627257064893e-001 2.641356817867431e-003 1.372395543686178e-004 -2.641610011314051e-003
