! Created with skrf 1.12.0 (http://scikit-rf.org).
# GHz S RI R 50.0 
!freq ReS11 ImS11 ReS21 ImS21 ReS12 ImS12 ReS22 ImS22
1.0 0.8262262377925974 0.25509957429993146 0.8719151114708611 0.07082643572787517 0.41009227345947274 0.05761248016246334 0.8659898735785039 0.8003979504093839
1.090909090909091 0.7367314531012654 0.05974160477834334 0.6593345205726674 0.017207273501895215 0.5644508752844397 0.4888768874854095 0.43446265781679017 0.6387156574068523
1.1818181818181817 0.6242538321717133 0.02206044266282403 0.8140280862404147 0.5946083381544588 0.5689343528171262 0.2343540086492989 0.6951589375332413 0.8874614967570597
1.2727272727272727 0.8171651702563676 0.09610368417989223 0.6134867393655178 0.6476438184295655 0.734359152952648 0.1807831621061028 0.22073781961709993 0.492646261956183
1.3636363636363635 0.02448759618472096 0.945891892688991 0.09640298014788551 0.898588703380505 0.5062817433170866 0.8346362280072926 0.6975769456819665 0.8558963904622853
1.4545454545454546 0.4831341295822882 0.46330983856971397 0.18518580853820654 0.30167039267514384 0.20008165134025357 0.6272676843323106 0.3113398033919531 0.8087805859036442
1.5454545454545454 0.5302225212773986 0.2021590165681788 0.8209953115756506 0.10171007407359056 0.48007155111728583 0.23060941761151976 0.720778140833235 0.9380898178367924
1.6363636363636365 0.21949096023059123 0.8356458257542736 0.6767623030326632 0.7979243136028247 0.5969363855702814 0.9527104640004419 0.8503514390255942 0.4686544608662081
1.7272727272727273 0.513595763622309 0.8017639575846235 0.3010890922533638 0.613244401975605 0.24655285963396456 0.1602182424290962 0.16111015059860634 0.26856534406462784
1.818181818181818 0.1761959294433657 0.5000618780409465 0.37225525454663455 0.24029519504378616 0.07435015580180004 0.28402876870342475 0.5699277234489329 0.9682803566390261
1.909090909090909 0.9066011394391124 0.1745037225711804 0.6698807638078684 0.7342186691090835 0.3262383316978159 0.40496197801178324 0.08699552098208385 0.2424272065658668
2.0 0.9104823095695364 0.7400082617975289 0.8749418881898037 0.7336786754775882 0.6614184718496663 0.8993937640565149 0.7313509690945462 0.32035031373415535
2.090909090909091 0.9026374693993989 0.8548620480279724 0.07400581878047008 0.8846668703764038 0.20322517355475522 0.2575679211336366 0.6044726587594125 0.8968193206179075
2.181818181818182 0.05959809714755315 0.6128423651381395 0.3716909043563674 0.5159863804471724 0.8219117454552833 0.5611515471903196 0.5940117797545341 0.6642805031007778
2.272727272727273 0.4381242025104801 0.22885387016418424 0.682690025396635 0.8596465410578965 0.8118299058812802 0.6328696830064223 0.6117051606623374 0.15309766056020924
2.3636363636363633 0.5392166997864972 0.17391045201805444 0.9474561763625075 0.46580950739527094 0.5691386789379869 0.37370339420052723 0.2786212217128733 0.3954313581776374
2.4545454545454546 0.9408894671943457 0.7680743223391407 0.7404680876655443 0.5588667725946475 0.5557233034392267 0.0642961592918615 0.9339511798041589 0.34499079869536553
2.5454545454545454 0.18017507777923558 0.7333583347601671 0.33524794657082746 0.10032112455292574 0.23599554109852805 0.5354697754209058 0.3631700442579673 0.134434687176887
2.636363636363636 0.9483045114718066 0.14838566199572556 0.8443413948147365 0.5532516541866567 0.39765468687885086 0.757361803546807 0.8605984899883999 0.3882818528637083
2.727272727272727 0.47549010068797715 0.08122527659730983 0.23551687630640772 0.5488577143342565 0.5959312446979089 0.10600655278054205 0.020943600443296573 0.2934081080455171
2.818181818181818 0.760251620105772 0.39971492221637517 0.5015908726721405 0.16629881238371236 0.9906154976691967 0.23467877697703432 0.20701085388968032 0.9773179155530038
2.909090909090909 0.5863410475202223 0.5003827273661553 0.777841138488184 0.12706583288853035 0.3008588621665643 0.329445617555868 0.698311179772448 0.048864876630386855
3.0 0.237999930510447 0.6720410650661545 0.4944437786616229 0.22574983591824638 0.2511719844692598 0.27442019530429385 0.2607221384234637 0.8544488265626334
3.090909090909091 0.569077630919518 0.5334538332672949 0.3161311334449457 0.6405791726329609 0.9470838796235893 0.4809612855491816 0.8431026663066691 0.19971512726862695
3.181818181818182 0.2783135330604618 0.40657795943751696 0.2985649371102622 0.12917202937871608 0.5735863015491974 0.6851739360842521 0.7095853733319787 0.5766831170100964
3.2727272727272725 0.7006113298696044 0.0300354584978495 0.6738872037231324 0.7196858422858695 0.42377990337192517 0.16129914875438223 0.3966010542174748 0.7301496306948557
3.3636363636363633 0.969230955074954 0.07168139391594974 0.7913533102425847 0.8709822613033948 0.632563919035601 0.33321469556638206 0.9868554897218869 0.03975131345725713
3.4545454545454546 0.5376310564124804 0.30401170566251134 0.8277155204344387 0.0031764766965736158 0.4665986324362853 0.7091020949333445 0.7279569749182513 0.37948409513604175
3.5454545454545454 0.32586211672615695 0.017627917729790665 0.42257923315605295 0.2012220619987326 0.14104696808520556 0.7809709788491538 0.8563403245652055 0.03530174730793256
3.6363636363636367 0.30745014491503453 0.321982506878832 0.15699626871315742 0.12293300813607666 0.07840693461359605 0.07374373925399091 0.1929753738114105 0.5578916837631852
3.727272727272727 0.6510581505256665 0.2755827841601284 0.2881598093840577 0.5496435811969294 0.95468079635851 0.7161632456650637 0.779183606138813 0.9657129412950414
3.818181818181818 0.6355260511940855 0.8137424667757297 0.196118662877227 0.5459740386744018 0.5712490795797648 0.09253143778370287 0.6760403323118979 0.141208416375034
3.909090909090909 0.20685682773838654 0.2515348064761802 0.1815117386743026 0.1638995558965095 0.03968397243109256 0.6611686100405361 0.4500139518040934 0.6940365917804471
4.0 0.7070802572470032 0.056514742813841945 0.9940693945717723 0.7592497877020606 0.3615251909695578 0.7398699994325684 0.5690837879357762 0.5213733321450948
4.090909090909091 0.5338859450053158 0.2754981966679382 0.7950658270490443 0.3281295717179675 0.6278152249289997 0.9639819864822085 0.5755841926304023 0.2394212126210885
4.181818181818182 0.08441950504210238 0.22610516029743866 0.7867505847431048 0.5252333238715101 0.7348067383178828 0.482684088302341 0.6517450455968665 0.24795280267668718
4.2727272727272725 0.08340209697530354 0.7543959654414438 0.16481408538302555 0.6429064781749162 0.6516529243667578 0.4848453564283828 0.4947405084168808 0.5860275451688755
4.363636363636364 0.8518673209455255 0.6400539086118787 0.7644008717031184 0.013219033537037128 0.5787208671148384 0.7334146237285729 0.7658933276035119 0.6518826217140733
4.454545454545454 0.943638010542416 0.8752889074882257 0.9271772934404892 0.8037740756696211 0.03449980159071919 0.9938272631843879 0.29687990799936725 0.8327292066237477
4.545454545454546 0.32880425921692247 0.6318620815603398 0.4010269032274265 0.05249743146419372 0.39231614631989054 0.1283413700768291 0.4890104983170267 0.007595089857262427
4.636363636363636 0.8149633274735242 0.6013459394486176 0.6838434858562488 0.644811437797327 0.28043396887892647 0.12262615708137237 0.11339215939038949 0.5586837968472501
4.727272727272727 0.05359493556254502 0.9353848410140689 0.9619224839235457 0.5043846453472809 0.500868647705748 0.08475602972142304 0.4168889610321178 0.025109763609216018
4.818181818181818 0.3219233742027783 0.8695302147602807 0.9244514940734833 0.3458328144015763 0.27964996628541694 0.4610787470418084 0.3317719121819176 0.04812158311159764
4.909090909090909 0.6849243873642036 0.6936523848204821 0.8429265007654484 0.4921930241165787 0.8398431582446114 0.6196728942220329 0.4595824145126388 0.8445093465400888
5.0 0.4974656382459325 0.375002061918557 0.910203045881438 0.11160916084797168 0.6661208013137594 0.8742719676042756 0.6350510060658772 0.1147058397657198
5.090909090909091 0.24371920814089376 0.6625818852814341 0.11555563745200548 0.8736202299775297 0.8075483250620098 0.43456726630664133 0.7336315794219515 0.7876396376656584
5.181818181818182 0.3137498315395393 0.5823369737133637 0.11110950550100951 0.706427525666037 0.382873215729885 0.9467915071021478 0.9205343210870626 0.3198881926546636
5.272727272727272 0.9650209787045878 0.8519162452955548 0.921383520012222 0.22513327335657407 0.77584929597774 0.5814988884586929 0.8481401883187896 0.9788231809232327
5.363636363636364 0.5603687543727699 0.33076016895997806 0.7045521518834711 0.20412544155892132 0.2366988624380616 0.40183262256626273 0.24414101657309606 0.012886638443242227
5.454545454545454 0.19840026593170212 0.563519206556798 0.7261098856892825 0.4599339027194337 0.22293958907465083 0.4500244824851446 0.4766395919404063 0.9336696153361133
5.545454545454545 0.22943822026861238 0.7835503861449586 0.4794148842134508 0.5467869931916667 0.2238502191539785 0.6587282301699188 0.3302126319567623 0.14062013965064124
5.636363636363636 0.06834739325604156 0.8756620407586206 0.01664230175021353 0.38960037452678176 0.9166531856178445 0.3490277741737138 0.2316922349792876 0.8532832172794498
5.727272727272727 0.7486920380685247 0.10737003071999729 0.15690233392278818 0.19199471926733935 0.5245756637396695 0.7598097117171924 0.6622077727426038 0.13813330152921077
5.818181818181818 0.6684829198906568 0.87545270934637 0.027723152795846362 0.7594531296253737 0.6475141239260502 0.13554826337907067 0.10373210221684748 0.45143256982884894
5.909090909090909 0.19961472191392693 0.1356141087191166 0.3442240046641839 0.7357373577091719 0.7433942383371159 0.21989355213231077 0.17692162569465486 0.8866070624553748
6.0 0.07770772927401581 0.1678406705941604 0.8877586787503756 0.9664488617601934 0.5037498156619786 0.6337446947578552 0.08805901108008585 0.42913471047722673
6.090909090909091 0.539372883055567 0.49094193527281593 0.9647671218258391 0.7732643027782893 0.5347653408325586 0.03970663938636365 0.6992747254311609 0.005164556775867468
6.181818181818182 0.44191952479639485 0.6905995073423039 0.9145609834595041 0.018107110255427883 0.65661847847469 0.6148727207495591 0.7009436157909567 0.35011626059819045
6.272727272727273 0.8102679570624765 0.6871763730574699 0.31803495644589497 0.6497555710126924 0.3139108784425759 0.08659358648553139 0.9360962011836564 0.9150240312573468
6.363636363636363 0.06448069377183863 0.8371591959381016 0.2148994993547506 0.4706002494564956 0.2707445794474974 0.7831048393716707 0.2848592272758782 0.016688426253296917
6.454545454545454 0.5627468160252421 0.17834422994052002 0.5933214021452633 0.26011044908813086 0.09165350029618335 0.39560642558991366 0.5288799707255732 0.7358669537574114
6.545454545454545 0.5554072010740375 0.5338402898597601 0.8023002339395797 0.010925886878668467 0.35799517268502756 0.1547624128039946 0.95615849476777 0.16945792638888013
6.636363636363636 0.41383475801962843 0.3927650809506965 0.9481859945906843 0.8410227359023931 0.6757274214278507 0.7224808399980536 0.5471618574872036 0.8545675718238518
6.727272727272727 0.2714408295744196 0.26847538367659696 0.3394055346038827 0.8612485698845835 0.8025181091821352 0.2609321299943995 0.5376574738740244 0.8853400188259721
6.818181818181818 0.4575326798288165 0.7045072892942009 0.4340001838502019 0.9223355530251159 0.9460151995770654 0.2561941613918475 0.7684310259882993 0.24247168387533802
6.909090909090909 0.4536952465057067 0.11290553603674658 0.3495141178343718 0.35542071471100967 0.07045999475177889 0.2825272664250258 0.0034534641026540136 0.9515044622365264
7.0 0.4386290339475708 0.21309312607010067 0.6929121475777673 0.06850214952744937 0.1158661325227266 0.41874150731835114 0.42048426283111184 0.4585925937069997
7.090909090909091 0.08491280303038506 0.270846731915495 0.7404820063771752 0.1024949380532828 0.8420534560587282 0.37718791465714374 0.5716216529877384 0.09679143650643252
7.181818181818182 0.1382010843830077 0.758432314826727 0.5533387723407395 0.3552341422189582 0.9316263001174033 0.05642680252016652 0.07652458333788092 0.5260286815354127
7.272727272727273 0.6106376182073822 0.2139447582412921 0.44550216957002764 0.5281395336126371 0.5562766174552647 0.3979217024436329 0.37945825284835966 0.704773577545327
7.363636363636363 0.3739943940302287 0.011590153239812384 0.8896269343180507 0.015468992042991347 0.17409503712535668 0.8719613361231005 0.5937606369008948 0.12664235166195792
7.454545454545454 0.08654939500127312 0.263776659043117 0.1557294287370311 0.17160938357963884 0.957422483217339 0.4311810987050433 0.04395067957485843 0.42464827955228224
7.545454545454545 0.8127330104274049 0.7330437730582272 0.6191678689144676 0.2174021251317534 0.0029601519884391303 0.661912953185862 0.6411825792656602 0.14548893836731636
7.636363636363636 0.31204431083186634 0.15292622721271865 0.3106268512394209 0.8137107666261206 0.8889783072781379 0.8298151975096454 0.5695418823546455 0.5628633558689952
7.727272727272727 0.5945513857192172 0.7438720783952902 0.43769501307368996 0.34567025436367926 0.5506193725289706 0.7654909875878991 0.9218019554815535 0.14860902540367948
7.818181818181818 0.45387570512640585 0.5368769614749976 0.8310530517066614 0.6102321597699554 0.501761893315164 0.3425124002178954 0.4814525055799349 0.674776980945521
7.909090909090909 0.34621065578994714 0.3360217221273537 0.09273702541019002 0.8542224881279296 0.20237130391543345 0.23047366180911788 0.29691158298740694 0.11254734648743003
8.0 0.1681284788030406 0.8698890052805996 0.2663458380007103 0.7581327776269453 0.8404917543806105 0.27149881192241954 0.7176545336297393 0.9663991374805133
8.090909090909092 0.5864071855755978 0.20786239789843286 0.22921971369771887 0.06478245391828452 0.3839914087861628 0.35558711115651287 0.4315157533931804 0.614806655309896
8.181818181818182 0.9137983571351054 0.33003903415875935 0.44833456728015786 0.8966001376592752 0.8768924280516792 0.11779032364231601 0.14187976883122333 0.6619041057411523
8.272727272727272 0.530788489903994 0.8251010443401601 0.3211931482727498 0.186668964432536 0.6250291101182448 0.28056553079132485 0.9635787206770928 0.39482414637298047
8.363636363636363 0.9949755961696503 0.9076763263135661 0.8184321976094291 0.8653861302631362 0.6108374956049694 0.8356040518662102 0.10998787181228353 0.1213583568175417
8.454545454545453 0.6463763391218443 0.06696796216363587 0.4168201928313694 0.1969732479343249 0.40627722537550526 0.37615959464916693 0.4614767117056142 0.016985832120767985
8.545454545454545 0.8024461879705732 0.003792874001796953 0.49319601734046836 0.3267538225892833 0.9967050890519565 0.6235349486869679 0.40559474477418933 0.15186379646977244
8.636363636363637 0.6143985181326862 0.8182956490414394 0.8091798699233493 0.30510759740391435 0.21935667077100063 0.019057146691822013 0.9313482322918487 0.5899613140723525
8.727272727272728 0.8708310882557065 0.08265729775946051 0.8864121377928325 0.492670838613244 0.08760086568573011 0.7034115685431469 0.30871500105063954 0.5378297071007769
8.818181818181818 0.39825187440560694 0.8929218929979621 0.4788532960333637 0.7327011816920628 0.46703422178223775 0.20333730330534971 0.9868625178838695 0.15261074275059516
8.909090909090908 0.29717379111624687 0.4088366083588888 0.4945899330313055 0.9125033714754369 0.7036808807789081 0.5686735787713463 0.6112029733366455 0.6240020279300281
9.0 0.9719794091403892 0.6203060813028015 0.6326513217813574 0.48996952891942147 0.1278045856106037 0.604900911568547 0.7361169831337455 0.23782438476265422
9.090909090909092 0.28032607307502233 0.19137269748039032 0.48851751238462704 0.27999917943718067 0.7087185431929693 0.4088417183677898 0.2949253859444748 0.19194285543341294
9.181818181818182 0.7483239799567203 0.12483803267303295 0.9222797266976651 0.7650946814492665 0.1482338862776551 0.774813376336617 0.42467513095039255 0.29240380780033637
9.272727272727272 0.5739159237585237 0.8796972293633084 0.5428493080785274 0.07732579708554144 0.7763240408571845 0.3127295003689109 0.6432296614447206 0.8792349917419241
9.363636363636363 0.5052327496181493 0.9894400521121957 0.6418107537069184 0.08674243732454834 0.7500693082349797 0.7530859814103809 0.5656930307056673 0.4615559810431997
9.454545454545453 0.4825606615862007 0.12767915602345214 0.994371359044529 0.15392635293940382 0.814625211597839 0.7038939438987596 0.11374133054770297 0.24951026557914868
9.545454545454543 0.7054261543858414 0.002217342661325894 0.5718170820244607 0.25317265565881253 0.9304667338230243 0.6021497661773588 0.06409799891551093 0.18702590150239817
9.636363636363637 0.6070991826592661 0.6103412450351162 0.32095701851551206 0.5292757797270655 0.9697073191899417 0.018591118369959858 0.9142591953339821 0.8858680242984658
9.727272727272728 0.043744973735008075 0.8347418037038408 0.8515080721694698 0.8561347145106117 0.007964628498589366 0.867212144073306 0.4942042235222227 0.746888165037206
9.818181818181818 0.8263933410172621 0.4026997478919965 0.7953160563161282 0.9423965153217966 0.3621487884566744 0.9640264731554467 0.2536953122373673 0.7884448091120856
9.909090909090908 0.45862204651665917 0.9456404762884655 0.1948361448948157 0.7933078034794274 0.5267941066283607 0.19046564492525875 0.0312610994310516 0.6493421824993686
10.0 0.5438742984849341 0.8064732591565636 0.5493961512315082 0.8772354798797598 0.9778902931504666 0.8092386047334814 0.4426496498563738 0.16336316393554517
